v1	V(vo)	I(D1)
-1.000000000000000e+001	-6.734476e+000	-2.721283e-003
-9.900000000000000e+000	-6.734107e+000	-2.638248e-003
-9.800000000000001e+000	-6.733738e+000	-2.555218e-003
-9.700000000000001e+000	-6.733365e+000	-2.472196e-003
-9.600000000000001e+000	-6.732982e+000	-2.389181e-003
-9.500000000000002e+000	-6.732590e+000	-2.306175e-003
-9.400000000000002e+000	-6.732188e+000	-2.223177e-003
-9.300000000000003e+000	-6.731774e+000	-2.140188e-003
-9.200000000000003e+000	-6.731349e+000	-2.057209e-003
-9.100000000000003e+000	-6.730910e+000	-1.974241e-003
-9.000000000000004e+000	-6.730458e+000	-1.891285e-003
-8.900000000000004e+000	-6.729990e+000	-1.808342e-003
-8.800000000000004e+000	-6.729505e+000	-1.725413e-003
-8.700000000000005e+000	-6.729002e+000	-1.642499e-003
-8.600000000000005e+000	-6.728478e+000	-1.559602e-003
-8.500000000000005e+000	-6.727932e+000	-1.476723e-003
-8.400000000000006e+000	-6.727361e+000	-1.393866e-003
-8.300000000000006e+000	-6.726761e+000	-1.311033e-003
-8.200000000000006e+000	-6.726130e+000	-1.228225e-003
-8.100000000000007e+000	-6.725462e+000	-1.145449e-003
-8.000000000000007e+000	-6.724752e+000	-1.062706e-003
-7.900000000000008e+000	-6.723995e+000	-9.800046e-004
-7.800000000000008e+000	-6.723180e+000	-8.973501e-004
-7.700000000000008e+000	-6.722298e+000	-8.147520e-004
-7.600000000000009e+000	-6.721334e+000	-7.322223e-004
-7.500000000000009e+000	-6.720268e+000	-6.497771e-004
-7.400000000000009e+000	-6.719074e+000	-5.674391e-004
-7.300000000000010e+000	-6.717712e+000	-4.852411e-004
-7.200000000000010e+000	-6.716122e+000	-4.032344e-004
-7.100000000000010e+000	-6.714202e+000	-3.215039e-004
-7.000000000000011e+000	-6.711768e+000	-2.402075e-004
-6.900000000000011e+000	-6.708425e+000	-1.596904e-004
-6.800000000000011e+000	-6.702826e+000	-8.098147e-005
-6.700000000000012e+000	-6.686748e+000	-1.104352e-005
-6.600000000000012e+000	-6.599993e+000	-5.505887e-009
-6.500000000000012e+000	-6.499994e+000	-5.261249e-009
-6.400000000000013e+000	-6.399994e+000	-5.238252e-009
-6.300000000000013e+000	-6.299994e+000	-5.215037e-009
-6.200000000000014e+000	-6.199994e+000	-5.191596e-009
-6.100000000000014e+000	-6.099994e+000	-5.167923e-009
-6.000000000000014e+000	-5.999994e+000	-5.144015e-009
-5.900000000000015e+000	-5.899994e+000	-5.119861e-009
-5.800000000000015e+000	-5.799994e+000	-5.095459e-009
-5.700000000000015e+000	-5.699994e+000	-5.070802e-009
-5.600000000000016e+000	-5.599994e+000	-5.045881e-009
-5.500000000000016e+000	-5.499994e+000	-5.020692e-009
-5.400000000000016e+000	-5.399994e+000	-4.995226e-009
-5.300000000000017e+000	-5.299994e+000	-4.969475e-009
-5.200000000000017e+000	-5.199994e+000	-4.943432e-009
-5.100000000000017e+000	-5.099994e+000	-4.917089e-009
-5.000000000000018e+000	-4.999994e+000	-4.890436e-009
-4.900000000000018e+000	-4.899994e+000	-4.863465e-009
-4.800000000000019e+000	-4.799994e+000	-4.836166e-009
-4.700000000000019e+000	-4.699994e+000	-4.808529e-009
-4.600000000000019e+000	-4.599994e+000	-4.780543e-009
-4.500000000000020e+000	-4.499994e+000	-4.752197e-009
-4.400000000000020e+000	-4.399994e+000	-4.723480e-009
-4.300000000000020e+000	-4.299994e+000	-4.694380e-009
-4.200000000000021e+000	-4.199995e+000	-4.664884e-009
-4.100000000000021e+000	-4.099995e+000	-4.634977e-009
-4.000000000000021e+000	-3.999995e+000	-4.604647e-009
-3.900000000000021e+000	-3.899995e+000	-4.573877e-009
-3.800000000000021e+000	-3.799994e+000	-4.542652e-009
-3.700000000000021e+000	-3.699995e+000	-4.510954e-009
-3.600000000000021e+000	-3.599995e+000	-4.478766e-009
-3.500000000000021e+000	-3.499995e+000	-4.446068e-009
-3.400000000000021e+000	-3.399995e+000	-4.412840e-009
-3.300000000000021e+000	-3.299995e+000	-4.379060e-009
-3.200000000000021e+000	-3.199995e+000	-4.344706e-009
-3.100000000000021e+000	-3.099995e+000	-4.309752e-009
-3.000000000000020e+000	-2.999995e+000	-4.274172e-009
-2.900000000000020e+000	-2.899995e+000	-4.237937e-009
-2.800000000000020e+000	-2.799995e+000	-4.201018e-009
-2.700000000000020e+000	-2.699995e+000	-4.163381e-009
-2.600000000000020e+000	-2.599995e+000	-4.124991e-009
-2.500000000000020e+000	-2.499995e+000	-4.085809e-009
-2.400000000000020e+000	-2.399995e+000	-4.045794e-009
-2.300000000000020e+000	-2.299995e+000	-4.004902e-009
-2.200000000000020e+000	-2.199995e+000	-3.963083e-009
-2.100000000000020e+000	-2.099995e+000	-3.920283e-009
-2.000000000000020e+000	-1.999995e+000	-3.876445e-009
-1.900000000000020e+000	-1.899995e+000	-3.831503e-009
-1.800000000000019e+000	-1.799995e+000	-3.785386e-009
-1.700000000000019e+000	-1.699996e+000	-3.738017e-009
-1.600000000000019e+000	-1.599996e+000	-3.689306e-009
-1.500000000000019e+000	-1.499996e+000	-3.639159e-009
-1.400000000000019e+000	-1.399996e+000	-3.587464e-009
-1.300000000000019e+000	-1.299996e+000	-3.534099e-009
-1.200000000000019e+000	-1.199996e+000	-3.478925e-009
-1.100000000000019e+000	-1.099996e+000	-3.421782e-009
-1.000000000000019e+000	-9.999959e-001	-3.362489e-009
-9.000000000000187e-001	-8.999960e-001	-3.300834e-009
-8.000000000000187e-001	-7.999961e-001	-3.236572e-009
-7.000000000000187e-001	-6.999962e-001	-3.169411e-009
-6.000000000000187e-001	-5.999963e-001	-3.098990e-009
-5.000000000000188e-001	-4.999964e-001	-3.024777e-009
-4.000000000000188e-001	-3.999965e-001	-2.945471e-009
-3.000000000000188e-001	-2.999966e-001	-2.855101e-009
-2.000000000000188e-001	-1.999967e-001	-2.717118e-009
-1.000000000000188e-001	-9.999725e-002	-2.292280e-009
-1.879052469178077e-014	-1.600702e-014	-9.361592e-022
9.999999999998122e-002	9.998253e-002	1.456097e-008
1.999999999999812e-001	1.998691e-001	1.091129e-007
2.999999999999812e-001	2.991458e-001	7.118992e-007
3.999999999999813e-001	3.949269e-001	4.227581e-006
4.999999999999812e-001	4.769925e-001	1.917361e-005
5.999999999999812e-001	5.342706e-001	5.482167e-005
6.999999999999812e-001	5.707847e-001	1.077296e-004
7.999999999999812e-001	5.951810e-001	1.706918e-004
8.999999999999812e-001	6.127399e-001	2.393848e-004
9.999999999999811e-001	6.262788e-001	3.115770e-004
1.099999999999981e+000	6.368262e-001	3.860613e-004
1.199999999999981e+000	6.454805e-001	4.621340e-004
1.299999999999981e+000	6.527915e-001	5.393584e-004
1.399999999999982e+000	6.590751e-001	6.174482e-004
1.499999999999982e+000	6.645589e-001	6.962077e-004
1.599999999999982e+000	6.694080e-001	7.754977e-004
1.699999999999982e+000	6.737435e-001	8.552167e-004
1.799999999999982e+000	6.776562e-001	9.352885e-004
1.899999999999982e+000	6.812162e-001	1.015655e-003
1.999999999999982e+000	6.844777e-001	1.096270e-003
2.099999999999982e+000	6.874843e-001	1.177097e-003
2.199999999999982e+000	6.902709e-001	1.258108e-003
2.299999999999982e+000	6.928658e-001	1.339279e-003
2.399999999999982e+000	6.952927e-001	1.420590e-003
2.499999999999982e+000	6.975711e-001	1.502024e-003
2.599999999999982e+000	6.997175e-001	1.583569e-003
2.699999999999982e+000	7.017458e-001	1.665212e-003
2.799999999999983e+000	7.036681e-001	1.746943e-003
2.899999999999983e+000	7.054946e-001	1.828755e-003
2.999999999999983e+000	7.072343e-001	1.910638e-003
3.099999999999983e+000	7.088949e-001	1.992588e-003
3.199999999999983e+000	7.104832e-001	2.074597e-003
3.299999999999983e+000	7.120052e-001	2.156662e-003
3.399999999999983e+000	7.134662e-001	2.238778e-003
3.499999999999983e+000	7.148710e-001	2.320941e-003
3.599999999999983e+000	7.162237e-001	2.403147e-003
3.699999999999983e+000	7.175281e-001	2.485393e-003
3.799999999999983e+000	7.187876e-001	2.567677e-003
3.899999999999984e+000	7.200052e-001	2.649996e-003
3.999999999999984e+000	7.211837e-001	2.732347e-003
4.099999999999984e+000	7.223257e-001	2.814729e-003
4.199999999999983e+000	7.234333e-001	2.897139e-003
4.299999999999983e+000	7.245087e-001	2.979576e-003
4.399999999999983e+000	7.255538e-001	3.062038e-003
4.499999999999982e+000	7.265702e-001	3.144525e-003
4.599999999999982e+000	7.275597e-001	3.227034e-003
4.699999999999982e+000	7.285237e-001	3.309564e-003
4.799999999999981e+000	7.294636e-001	3.392114e-003
4.899999999999981e+000	7.303805e-001	3.474683e-003
5.000000000000000e+000	7.312757e-001	3.557270e-003
