Freq.	V(vo)
1.00000000000000e+003	7.32463695425220e-001,-1.19166598077266e-001
1.02329299228075e+003	7.31574629939395e-001,-1.21794330933145e-001
1.04712854805090e+003	7.30645974422650e-001,-1.24473079295818e-001
1.07151930523761e+003	7.29676076310216e-001,-1.27203348870601e-001
1.09647819614319e+003	7.28663224357979e-001,-1.29985613694403e-001
1.12201845430196e+003	7.27605647537787e-001,-1.32820312898763e-001
1.14815362149688e+003	7.26501514014640e-001,-1.35707847285137e-001
1.17489755493953e+003	7.25348930219033e-001,-1.38648575706905e-001
1.20226443461741e+003	7.24145940028853e-001,-1.41642811252959e-001
1.23026877081238e+003	7.22890524076347e-001,-1.44690817228256e-001
1.25892541179417e+003	7.21580599196861e-001,-1.47792802927392e-001
1.28824955169313e+003	7.20214018037278e-001,-1.50948919197955e-001
1.31825673855641e+003	7.18788568843312e-001,-1.54159253791347e-001
1.34896288259165e+003	7.17301975446106e-001,-1.57423826499760e-001
1.38038426460288e+003	7.15751897469825e-001,-1.60742584079197e-001
1.41253754462275e+003	7.14135930783255e-001,-1.64115394959770e-001
1.44543977074593e+003	7.12451608219672e-001,-1.67542043746045e-001
1.47910838816821e+003	7.10696400590463e-001,-1.71022225511922e-001
1.51356124843621e+003	7.08867718019231e-001,-1.74555539896479e-001
1.54881661891248e+003	7.06962911624185e-001,-1.78141485009334e-001
1.58489319246111e+003	7.04979275577710e-001,-1.81779451156474e-001
1.62181009735893e+003	7.02914049572896e-001,-1.85468714400077e-001
1.65958690743756e+003	7.00764421727639e-001,-1.89208429968712e-001
1.69824365246174e+003	6.98527531957493e-001,-1.92997625537396e-001
1.73780082874937e+003	6.96200475848886e-001,-1.96835194400311e-001
1.77827941003892e+003	6.93780309064461e-001,-2.00719888562580e-001
1.81970085860998e+003	6.91264052312184e-001,-2.04650311781326e-001
1.86208713666287e+003	6.88648696909400e-001,-2.08624912590295e-001
1.90546071796325e+003	6.85931210972186e-001,-2.12641977346606e-001
1.94984459975804e+003	6.83108546259129e-001,-2.16699623342654e-001
1.99526231496888e+003	6.80177645696908e-001,-2.20795792030868e-001
2.04173794466953e+003	6.77135451612854e-001,-2.24928242413760e-001
2.08929613085404e+003	6.73978914696850e-001,-2.29094544656628e-001
2.13796208950223e+003	6.70705003711540e-001,-2.33292073985160e-001
2.18776162394955e+003	6.67310715965702e-001,-2.37518004935106e-001
2.23872113856834e+003	6.63793088560942e-001,-2.41769306026002e-001
2.29086765276777e+003	6.60149210416259e-001,-2.46042734935568e-001
2.34422881531992e+003	6.56376235068845e-001,-2.50334834255825e-001
2.39883291901949e+003	6.52471394242325e-001,-2.54641927915997e-001
2.45470891568503e+003	6.48432012165828e-001,-2.58960118360839e-001
2.51188643150958e+003	6.44255520618556e-001,-2.63285284576065e-001
2.57039578276886e+003	6.39939474665074e-001,-2.67613081054789e-001
2.63026799189538e+003	6.35481569036291e-001,-2.71938937800385e-001
2.69153480392691e+003	6.30879655100199e-001,-2.76258061461603e-001
2.75422870333816e+003	6.26131758354853e-001,-2.80565437695164e-001
2.81838293126445e+003	6.21236096363969e-001,-2.84855834849127e-001
2.88403150312660e+003	6.16191097042999e-001,-2.89123809057011e-001
2.95120922666638e+003	6.10995417190739e-001,-2.93363710827861e-001
3.01995172040201e+003	6.05647961148632e-001,-2.97569693210944e-001
3.09029543251359e+003	6.00147899457069e-001,-3.01735721605564e-001
3.16227766016838e+003	5.94494687365549e-001,-3.05855585276465e-001
3.23593656929628e+003	5.88688083041567e-001,-3.09922910623353e-001
3.31131121482591e+003	5.82728165311975e-001,-3.13931176239272e-001
3.38844156139202e+003	5.76615350760581e-001,-3.17873729776875e-001
3.46736850452531e+003	5.70350409997089e-001,-3.21743806624082e-001
3.54813389233575e+003	5.63934482905605e-001,-3.25534550371365e-001
3.63078054770101e+003	5.57369092676029e-001,-3.29239035032036e-001
3.71535229097172e+003	5.50656158419061e-001,-3.32850288954689e-001
3.80189396320561e+003	5.43798006165537e-001,-3.36361320343568e-001
3.89045144994280e+003	5.36797378053661e-001,-3.39765144278429e-001
3.98107170553497e+003	5.29657439513600e-001,-3.43054811100808e-001
4.07380277804112e+003	5.22381784268029e-001,-3.46223436008846e-001
4.16869383470335e+003	5.14974436979715e-001,-3.49264229678473e-001
4.26579518801592e+003	5.07439853393151e-001,-3.52170529705225e-001
4.36515832240165e+003	4.99782917836521e-001,-3.54935832638835e-001
4.46683592150962e+003	4.92008937972916e-001,-3.57553826362437e-001
4.57088189614874e+003	4.84123636715431e-001,-3.60018422550341e-001
4.67735141287197e+003	4.76133141249392e-001,-3.62323788923378e-001
4.78630092322637e+003	4.68043969136042e-001,-3.64464381009139e-001
4.89778819368445e+003	4.59863011505249e-001,-3.66434973106678e-001
5.01187233627271e+003	4.51597513379521e-001,-3.68230688151560e-001
5.12861383991364e+003	4.43255051207412e-001,-3.69847026178010e-001
5.24807460249772e+003	4.34843507720498e-001,-3.71279891080392e-001
5.37031796370252e+003	4.26371044263930e-001,-3.72525615386585e-001
5.49540873857624e+003	4.17846070785336e-001,-3.73580982770907e-001
5.62341325190348e+003	4.09277213699934e-001,-3.74443248054037e-001
5.75439937337156e+003	4.00673281880322e-001,-3.75110154461629e-001
5.88843655355588e+003	3.92043231046990e-001,-3.75579947941704e-001
6.02559586074357e+003	3.83396126859443e-001,-3.75851388372945e-001
6.16595001861481e+003	3.74741107027416e-001,-3.75923757531253e-001
6.30957344480192e+003	3.66087342776640e-001,-3.75796863719584e-001
6.45654229034654e+003	3.57444000013463e-001,-3.75471043005655e-001
6.60693448007595e+003	3.48820200537310e-001,-3.74947157052652e-001
6.76082975391980e+003	3.40224983649197e-001,-3.74226587568972e-001
6.91830970918935e+003	3.31667268498437e-001,-3.73311227443377e-001
7.07945784384136e+003	3.23155817498381e-001,-3.72203468671052e-001
7.24435960074989e+003	3.14699201125757e-001,-3.70906187213141e-001
7.41310241300916e+003	3.06305764397379e-001,-3.69422724966733e-001
7.58577575029182e+003	2.97983595293060e-001,-3.67756869053366e-001
7.76247116628690e+003	2.89740495365101e-001,-3.65912828661429e-001
7.94328234724280e+003	2.81583952743364e-001,-3.63895209700872e-001
8.12830516164097e+003	2.73521117711353e-001,-3.61708987547182e-001
8.31763771102669e+003	2.65558780993541e-001,-3.59359478165368e-001
8.51138038202374e+003	2.57703354858280e-001,-3.56852307913686e-001
8.70963589956079e+003	2.49960857104486e-001,-3.54193382331061e-001
8.91250938133744e+003	2.42336897964783e-001,-3.51388854211734e-001
9.12010839355908e+003	2.34836669923374e-001,-3.48445091265857e-001
9.33254300796989e+003	2.27464940414247e-001,-3.45368643655860e-001
9.54992586021434e+003	2.20226047334859e-001,-3.42166211685831e-001
9.77237220955809e+003	2.13123897282608e-001,-3.38844613905310e-001
9.99999999999998e+003	2.06161966396464e-001,-3.35410755870330e-001
1.02329299228075e+004	1.99343303664485e-001,-3.31871599783656e-001
1.04712854805090e+004	1.92670536539481e-001,-3.28234135213632e-001
1.07151930523760e+004	1.86145878690177e-001,-3.24505351067241e-001
1.09647819614318e+004	1.79771139703647e-001,-3.20692208968447e-001
1.12201845430196e+004	1.73547736546532e-001,-3.16801618168156e-001
1.14815362149688e+004	1.67476706587552e-001,-3.12840412087528e-001
1.17489755493953e+004	1.61558721981749e-001,-3.08815326572374e-001
1.20226443461741e+004	1.55794105217649e-001,-3.04732979913289e-001
1.23026877081238e+004	1.50182845631809e-001,-3.00599854664277e-001
1.25892541179416e+004	1.44724616700637e-001,-2.96422281272200e-001
1.28824955169313e+004	1.39418793926832e-001,-2.92206423510576e-001
1.31825673855640e+004	1.34264473146801e-001,-2.87958265694211e-001
1.34896288259165e+004	1.29260489095735e-001,-2.83683601635951e-001
1.38038426460288e+004	1.24405434078447e-001,-2.79388025293586e-001
1.41253754462275e+004	1.19697676606176e-001,-2.75076923043494e-001
1.44543977074592e+004	1.15135379872162e-001,-2.70755467508122e-001
1.47910838816820e+004	1.10716519951689e-001,-2.66428612856668e-001
1.51356124843620e+004	1.06438903625168e-001,-2.62101091492304e-001
1.54881661891248e+004	1.02300185735577e-001,-2.57777412034907e-001
1.58489319246111e+004	9.82978860040025e-002,-2.53461858505331e-001
1.62181009735893e+004	9.44294052389933e-002,-2.49158490615741e-001
1.65958690743756e+004	9.06920408868352e-002,-2.44871145070139e-001
1.69824365246174e+004	8.70830018806042e-002,-2.40603437780042e-001
1.73780082874937e+004	8.35994227558803e-002,-2.36358766901892e-001
1.77827941003892e+004	8.02383770102565e-002,-2.32140316605314e-001
1.81970085860998e+004	7.69968896922466e-002,-2.27951061484509e-001
1.86208713666286e+004	7.38719492128494e-002,-2.23793771528748e-001
1.90546071796324e+004	7.08605183798843e-002,-2.19671017572136e-001
1.94984459975804e+004	6.79595446612836e-002,-2.15585177147248e-001
1.99526231496887e+004	6.51659696888289e-002,-2.11538440671968e-001
2.04173794466952e+004	6.24767380184029e-002,-2.07532817903707e-001
2.08929613085403e+004	5.98888051667059e-002,-2.03570144600077e-001
2.13796208950222e+004	5.73991449476321e-002,-1.99652089330040e-001
2.18776162394954e+004	5.50047561341327e-002,-1.95780160384370e-001
2.23872113856833e+004	5.27026684734829e-002,-1.91955712739044e-001
2.29086765276777e+004	5.04899480854457e-002,-1.88179955029774e-001
2.34422881531991e+004	4.83637022739590e-002,-1.84453956500294e-001
2.39883291901948e+004	4.63210837836862e-002,-1.80778653891275e-001
2.45470891568502e+004	4.43592945331341e-002,-1.77154858240690e-001
2.51188643150957e+004	4.24755888560847e-002,-1.73583261570271e-001
2.57039578276885e+004	4.06672762828575e-002,-1.70064443436149e-001
2.63026799189537e+004	3.89317238924528e-002,-1.66598877325111e-001
2.69153480392691e+004	3.72663582659647e-002,-1.63186936880860e-001
2.75422870333816e+004	3.56686670708236e-002,-1.59828901947506e-001
2.81838293126444e+004	3.41362003044660e-002,-1.56524964420003e-001
2.88403150312660e+004	3.26665712249597e-002,-1.53275233893592e-001
2.95120922666637e+004	3.12574569949631e-002,-1.50079743106363e-001
3.01995172040200e+004	2.99065990641860e-002,-1.46938453170943e-001
3.09029543251358e+004	2.86118033142700e-002,-1.43851258592984e-001
3.16227766016837e+004	2.73709399887316e-002,-1.40817992075590e-001
3.23593656929627e+004	2.61819434293301e-002,-1.37838429110159e-001
3.31131121482590e+004	2.50428116389463e-002,-1.34912292355219e-001
3.38844156139201e+004	2.39516056897921e-002,-1.32039255805855e-001
3.46736850452530e+004	2.29064489945371e-002,-1.29218948757162e-001
3.54813389233574e+004	2.19055264567274e-002,-1.26450959565875e-001
3.63078054770100e+004	2.09470835157062e-002,-1.23734839214929e-001
3.71535229097171e+004	2.00294251001150e-002,-1.21070104686221e-001
3.80189396320560e+004	1.91509145029753e-002,-1.18456242147212e-001
3.89045144994279e+004	1.83099721903158e-002,-1.15892709957345e-001
3.98107170553496e+004	1.75050745543277e-002,-1.13378941500500e-001
4.07380277804111e+004	1.67347526210985e-002,-1.10914347849851e-001
4.16869383470334e+004	1.59975907220930e-002,-1.08498320271620e-001
4.26579518801591e+004	1.52922251377209e-002,-1.06130232574281e-001
4.36515832240164e+004	1.46173427205533e-002,-1.03809443309756e-001
4.46683592150961e+004	1.39716795050177e-002,-1.01535297833138e-001
4.57088189614873e+004	1.33540193097221e-002,-9.93071302274032e-002
4.67735141287196e+004	1.27631923379247e-002,-9.71242650994734e-002
4.78630092322636e+004	1.21980737810765e-002,-9.49860192538744e-002
4.89778819368444e+004	1.16575824298153e-002,-9.28917032501068e-002
5.01187233627270e+004	1.11406792962899e-002,-9.08406228496710e-002
5.12861383991362e+004	1.06463662512241e-002,-8.88320803585302e-002
5.24807460249770e+004	1.01736846787029e-002,-8.68653758706091e-002
5.37031796370250e+004	9.72171415127077e-003,-8.49398084177368e-002
5.49540873857622e+004	9.28957112757123e-003,-8.30546770312489e-002
5.62341325190346e+004	8.87640767442958e-003,-8.12092817202629e-002
5.75439937337154e+004	8.48141021497880e-003,-7.94029243714408e-002
5.88843655355586e+004	8.10379830415817e-003,-7.76349095748522e-002
6.02559586074355e+004	7.74282343266649e-003,-7.59045453803497e-002
6.16595001861479e+004	7.39776786022801e-003,-7.42111439886689e-002
6.30957344480190e+004	7.06794347882851e-003,-7.25540223812727e-002
6.45654229034652e+004	6.75269070639724e-003,-7.09325028927637e-002
6.60693448007593e+004	6.45137741124837e-003,-6.93459137295045e-002
6.76082975391979e+004	6.16339786745044e-003,-6.77935894378989e-002
6.91830970918933e+004	5.88817174116326e-003,-6.62748713256150e-002
7.07945784384134e+004	5.62514310786712e-003,-6.47891078388533e-002
7.24435960074987e+004	5.37377950030842e-003,-6.33356548986020e-002
7.41310241300914e+004	5.13357098689678e-003,-6.19138761986587e-002
7.58577575029180e+004	4.90402928021144e-003,-6.05231434680456e-002
7.76247116628688e+004	4.68468687520747e-003,-5.91628367002967e-002
7.94328234724277e+004	4.47509621665429e-003,-5.78323443519562e-002
8.12830516164095e+004	4.27482889528978e-003,-5.65310635124887e-002
8.31763771102667e+004	4.08347487213126e-003,-5.52584000476765e-002
8.51138038202372e+004	3.90064173034988e-003,-5.40137687184541e-002
8.70963589956076e+004	3.72595395408671e-003,-5.27965932770137e-002
8.91250938133741e+004	3.55905223356520e-003,-5.16063065419030e-002
9.12010839355905e+004	3.39959279583775e-003,-5.04423504537334e-002
9.33254300796986e+004	3.24724676049008e-003,-4.93041761130131e-002
9.54992586021431e+004	3.10169951961814e-003,-4.81912438015264e-002
9.77237220955805e+004	2.96265014138693e-003,-4.71030229885914e-002
9.99999999999995e+004	2.82981079647749e-003,-4.60389923234391e-002
1.02329299228075e+005	2.70290620672951e-003,-4.49986396148817e-002
1.04712854805089e+005	2.58167311528928e-003,-4.39814617993579e-002
1.07151930523760e+005	2.46585977757808e-003,-4.29869648983722e-002
1.09647819614318e+005	2.35522547240317e-003,-4.20146639662785e-002
1.12201845430196e+005	2.24954003254177e-003,-4.10640830292937e-002
1.14815362149688e+005	2.14858339413906e-003,-4.01347550165675e-002
1.17489755493952e+005	2.05214516427187e-003,-3.92262216840763e-002
1.20226443461741e+005	1.96002420604267e-003,-3.83380335320593e-002
1.23026877081237e+005	1.87202824058091e-003,-3.74697497166622e-002
1.25892541179416e+005	1.78797346534329e-003,-3.66209379564073e-002
1.28824955169313e+005	1.70768418811847e-003,-3.57911744340668e-002
1.31825673855640e+005	1.63099247615673e-003,-3.49800436944720e-002
1.34896288259165e+005	1.55773781986037e-003,-3.41871385387545e-002
1.38038426460288e+005	1.48776681048601e-003,-3.34120599154784e-002
1.41253754462275e+005	1.42093283132531e-003,-3.26544168090883e-002
1.44543977074592e+005	1.35709576184670e-003,-3.19138261260666e-002
1.47910838816820e+005	1.29612169429595e-003,-3.11899125791633e-002
1.51356124843620e+005	1.23788266226920e-003,-3.04823085700341e-002
1.54881661891247e+005	1.18225638078759e-003,-2.97906540705959e-002
1.58489319246110e+005	1.12912599741784e-003,-2.91145965033862e-002
1.62181009735892e+005	1.07837985399838e-003,-2.84537906211866e-002
1.65958690743755e+005	1.02991125854546e-003,-2.78078983861536e-002
1.69824365246173e+005	9.83618266928515e-004,-2.71765888486782e-002
1.73780082874937e+005	9.39403473918200e-004,-2.65595380261749e-002
1.77827941003891e+005	8.97173813224838e-004,-2.59564287819896e-002
1.81970085860997e+005	8.56840366158688e-004,-2.53669507045918e-002
1.86208713666286e+005	8.18318178556922e-004,-2.47907999872105e-002
1.90546071796324e+005	7.81526085635356e-004,-2.42276793080503e-002
1.94984459975803e+005	7.46386544435711e-004,-2.36772977112188e-002
1.99526231496887e+005	7.12825473551648e-004,-2.31393704884799e-002
2.04173794466952e+005	6.80772099828884e-004,-2.26136190619376e-002
2.08929613085403e+005	6.50158811746394e-004,-2.20997708677448e-002
2.13796208950222e+005	6.20921019197131e-004,-2.15975592409227e-002
2.18776162394954e+005	5.92997019397626e-004,-2.11067233013648e-002
2.23872113856833e+005	5.66327868666568e-004,-2.06270078410945e-002
2.29086765276776e+005	5.40857259822722e-004,-2.01581632128354e-002
2.34422881531991e+005	5.16531404962532e-004,-1.96999452199469e-002
2.39883291901948e+005	4.93298923387398e-004,-1.92521150077714e-002
2.45470891568501e+005	4.71110734459886e-004,-1.88144389564331e-002
2.51188643150956e+005	4.49919955177119e-004,-1.83866885751224e-002
2.57039578276885e+005	4.29681802258239e-004,-1.79686403978956e-002
2.63026799189536e+005	4.10353498551180e-004,-1.75600758810138e-002
2.69153480392690e+005	3.91894183571997e-004,-1.71607813018414e-002
2.75422870333815e+005	3.74264827997772e-004,-1.67705476593190e-002
2.81838293126444e+005	3.57428151941515e-004,-1.63891705760252e-002
2.88403150312659e+005	3.41348546844684e-004,-1.60164502018328e-002
2.95120922666637e+005	3.25992000829811e-004,-1.56521911191683e-002
3.01995172040200e+005	3.11326027362349e-004,-1.52962022498742e-002
3.09029543251357e+005	2.97319597077239e-004,-1.49482967636773e-002
3.16227766016836e+005	2.83943072631784e-004,-1.46082919882579e-002
3.23593656929626e+005	2.71168146452315e-004,-1.42760093209167e-002
3.31131121482589e+005	2.58967781247764e-004,-1.39512741418335e-002
3.38844156139200e+005	2.47316153168688e-004,-1.36339157289074e-002
3.46736850452529e+005	2.36188597495466e-004,-1.33237671741700e-002
3.54813389233573e+005	2.25561556744399e-004,-1.30206653017598e-002
3.63078054770099e+005	2.15412531085210e-004,-1.27244505874447e-002
3.71535229097170e+005	2.05720030968048e-004,-1.24349670796780e-002
3.80189396320558e+005	1.96463531862488e-004,-1.21520623221744e-002
3.89045144994278e+005	1.87623431015228e-004,-1.18755872779881e-002
3.98107170553494e+005	1.79181006137265e-004,-1.16053962550771e-002
4.07380277804110e+005	1.71118375935150e-004,-1.13413468333353e-002
4.16869383470332e+005	1.63418462404697e-004,-1.10832997930750e-002
4.26579518801589e+005	1.56064954809025e-004,-1.08311190449396e-002
4.36515832240163e+005	1.49042275266257e-004,-1.05846715612281e-002
4.46683592150960e+005	1.42335545875444e-004,-1.03438273086107e-002
4.57088189614872e+005	1.35930557312403e-004,-1.01084591822158e-002
4.67735141287195e+005	1.29813738830184e-004,-9.87844294106795e-003
4.78630092322635e+005	1.23972129601694e-004,-9.65365714485491e-003
4.89778819368442e+005	1.18393351344792e-004,-9.43398309200444e-003
5.01187233627268e+005	1.13065582172780e-004,-9.21930475904846e-003
5.12861383991361e+005	1.07977531615714e-004,-9.00950874125379e-003
5.24807460249768e+005	1.03118416760385e-004,-8.80448419449845e-003
5.37031796370248e+005	9.84779394591058e-005,-8.60412277837171e-003
5.49540873857620e+005	9.40462645596477e-005,-8.40831860047713e-003
5.62341325190345e+005	8.98139991107689e-005,-8.21696816191699e-003
5.75439937337152e+005	8.57721724998043e-005,-8.02997030393722e-003
5.88843655355584e+005	8.19122174807000e-005,-7.84722615571164e-003
6.02559586074353e+005	7.82259520527251e-005,-7.66863908324454e-003
6.16595001861477e+005	7.47055621518571e-005,-7.49411463937108e-003
6.30957344480188e+005	7.13435851185201e-005,-7.32356051483443e-003
6.45654229034650e+005	6.81328939069681e-005,-7.15688649041976e-003
6.60693448007591e+005	6.50666820031487e-005,-6.99400439012434e-003
6.76082975391976e+005	6.21384490193527e-005,-6.83482803534401e-003
6.91830970918931e+005	5.93419869353704e-005,-6.67927320005605e-003
7.07945784384132e+005	5.66713669572155e-005,-6.52725756697902e-003
7.24435960074984e+005	5.41209269657714e-005,-6.37870068468996e-003
7.41310241300911e+005	5.16852595289436e-005,-6.23352392568016e-003
7.58577575029177e+005	4.93592004520786e-005,-6.09165044533035e-003
7.76247116628685e+005	4.71378178425353e-005,-5.95300514178700e-003
7.94328234724275e+005	4.50164016653719e-005,-5.81751461672119e-003
8.12830516164092e+005	4.29904537681361e-005,-5.68510713695214e-003
8.31763771102664e+005	4.10556783537315e-005,-5.55571259691756e-003
8.51138038202369e+005	3.92079728812709e-005,-5.42926248197339e-003
8.70963589956073e+005	3.74434193757246e-005,-5.30568983250557e-003
8.91250938133738e+005	3.57582761280291e-005,-5.18492920883717e-003
9.12010839355902e+005	3.41489697681431e-005,-5.06691665691388e-003
9.33254300796983e+005	3.26120876943161e-005,-4.95158967475181e-003
