vcc	V(vce)	I(R1)
Step Information: Vbb=800m  (Run: 1/4)
0.000000000000000e+000	-1.394122e-003	1.394122e-006
1.000000000000000e-001	1.840423e-002	8.159578e-005
2.000000000000000e-001	3.183285e-002	1.681672e-004
3.000000000000000e-001	4.200281e-002	2.579972e-004
4.000000000000000e-001	5.027912e-002	3.497209e-004
5.000000000000000e-001	5.736729e-002	4.426327e-004
6.000000000000000e-001	6.358896e-002	5.364111e-004
7.000000000000000e-001	6.922904e-002	6.307710e-004
7.999999999999999e-001	7.444922e-002	7.255508e-004
8.999999999999999e-001	7.936119e-002	8.206388e-004
9.999999999999999e-001	8.405033e-002	9.159497e-004
1.100000000000000e+000	8.858469e-002	1.011415e-003
1.200000000000000e+000	9.302141e-002	1.106979e-003
1.300000000000000e+000	9.741130e-002	1.202589e-003
1.400000000000000e+000	1.018025e-001	1.298198e-003
1.500000000000000e+000	1.062434e-001	1.393757e-003
1.600000000000000e+000	1.107863e-001	1.489214e-003
1.700000000000000e+000	1.154909e-001	1.584509e-003
1.800000000000001e+000	1.204297e-001	1.679570e-003
1.900000000000001e+000	1.256962e-001	1.774304e-003
2.000000000000000e+000	1.314176e-001	1.868582e-003
2.100000000000001e+000	1.377783e-001	1.962222e-003
2.200000000000001e+000	1.450646e-001	2.054935e-003
2.300000000000001e+000	1.537588e-001	2.146241e-003
2.400000000000001e+000	1.647678e-001	2.235232e-003
2.500000000000001e+000	1.803816e-001	2.319618e-003
2.600000000000001e+000	2.063188e-001	2.393681e-003
2.700000000000001e+000	2.610532e-001	2.438947e-003
2.800000000000001e+000	3.501561e-001	2.449844e-003
2.900000000000001e+000	4.454110e-001	2.454589e-003
3.000000000000001e+000	5.409368e-001	2.459063e-003
3.100000000000001e+000	6.364723e-001	2.463528e-003
3.200000000000002e+000	7.320081e-001	2.467992e-003
3.300000000000002e+000	8.275440e-001	2.472456e-003
3.400000000000002e+000	9.230800e-001	2.476920e-003
3.500000000000002e+000	1.018616e+000	2.481384e-003
3.600000000000002e+000	1.114152e+000	2.485848e-003
3.700000000000002e+000	1.209688e+000	2.490312e-003
3.800000000000002e+000	1.305224e+000	2.494776e-003
3.900000000000002e+000	1.400761e+000	2.499239e-003
4.000000000000002e+000	1.496297e+000	2.503703e-003
4.100000000000001e+000	1.591833e+000	2.508167e-003
4.200000000000001e+000	1.687370e+000	2.512630e-003
4.300000000000001e+000	1.782906e+000	2.517094e-003
4.400000000000000e+000	1.878443e+000	2.521557e-003
4.500000000000000e+000	1.973979e+000	2.526021e-003
4.600000000000000e+000	2.069516e+000	2.530484e-003
4.699999999999999e+000	2.165052e+000	2.534948e-003
4.799999999999999e+000	2.260589e+000	2.539411e-003
4.899999999999999e+000	2.356126e+000	2.543874e-003
4.999999999999998e+000	2.451663e+000	2.548337e-003
5.099999999999998e+000	2.547200e+000	2.552800e-003
5.199999999999998e+000	2.642737e+000	2.557263e-003
5.299999999999997e+000	2.738274e+000	2.561726e-003
5.399999999999997e+000	2.833811e+000	2.566189e-003
5.499999999999996e+000	2.929348e+000	2.570652e-003
5.599999999999996e+000	3.024885e+000	2.575115e-003
5.699999999999996e+000	3.120422e+000	2.579578e-003
5.799999999999995e+000	3.215960e+000	2.584041e-003
5.899999999999995e+000	3.311497e+000	2.588503e-003
5.999999999999995e+000	3.407034e+000	2.592966e-003
6.099999999999994e+000	3.502572e+000	2.597428e-003
6.199999999999994e+000	3.598109e+000	2.601891e-003
6.299999999999994e+000	3.693647e+000	2.606353e-003
6.399999999999993e+000	3.789184e+000	2.610816e-003
6.499999999999993e+000	3.884722e+000	2.615278e-003
6.599999999999993e+000	3.980259e+000	2.619741e-003
6.699999999999992e+000	4.075797e+000	2.624203e-003
6.799999999999992e+000	4.171335e+000	2.628665e-003
6.899999999999992e+000	4.266873e+000	2.633127e-003
6.999999999999991e+000	4.362411e+000	2.637589e-003
7.099999999999991e+000	4.457949e+000	2.642051e-003
7.199999999999990e+000	4.553487e+000	2.646513e-003
7.299999999999990e+000	4.649025e+000	2.650975e-003
7.399999999999990e+000	4.744563e+000	2.655437e-003
7.499999999999989e+000	4.840101e+000	2.659899e-003
7.599999999999989e+000	4.935639e+000	2.664361e-003
7.699999999999989e+000	5.031178e+000	2.668822e-003
7.799999999999988e+000	5.126716e+000	2.673284e-003
7.899999999999988e+000	5.222254e+000	2.677746e-003
7.999999999999988e+000	5.317793e+000	2.682207e-003
8.099999999999987e+000	5.413332e+000	2.686669e-003
8.199999999999987e+000	5.508870e+000	2.691130e-003
8.299999999999987e+000	5.604409e+000	2.695591e-003
8.399999999999986e+000	5.699947e+000	2.700053e-003
8.499999999999986e+000	5.795486e+000	2.704514e-003
8.599999999999985e+000	5.891025e+000	2.708975e-003
8.699999999999985e+000	5.986564e+000	2.713436e-003
8.799999999999985e+000	6.082102e+000	2.717898e-003
8.899999999999984e+000	6.177641e+000	2.722359e-003
8.999999999999984e+000	6.273180e+000	2.726820e-003
9.099999999999984e+000	6.368720e+000	2.731281e-003
9.199999999999983e+000	6.464259e+000	2.735741e-003
9.299999999999983e+000	6.559798e+000	2.740202e-003
9.399999999999983e+000	6.655337e+000	2.744663e-003
9.499999999999982e+000	6.750876e+000	2.749124e-003
9.599999999999982e+000	6.846416e+000	2.753585e-003
9.699999999999982e+000	6.941955e+000	2.758045e-003
9.799999999999981e+000	7.037494e+000	2.762506e-003
9.899999999999981e+000	7.133034e+000	2.766966e-003
9.999999999999981e+000	7.228573e+000	2.771427e-003
1.009999999999998e+001	7.324113e+000	2.775887e-003
1.019999999999998e+001	7.419652e+000	2.780348e-003
1.029999999999998e+001	7.515192e+000	2.784808e-003
1.039999999999998e+001	7.610732e+000	2.789268e-003
1.049999999999998e+001	7.706272e+000	2.793728e-003
1.059999999999998e+001	7.801811e+000	2.798188e-003
1.069999999999998e+001	7.897351e+000	2.802649e-003
1.079999999999998e+001	7.992891e+000	2.807109e-003
1.089999999999998e+001	8.088431e+000	2.811569e-003
1.099999999999998e+001	8.183971e+000	2.816029e-003
1.109999999999998e+001	8.279511e+000	2.820489e-003
1.119999999999998e+001	8.375051e+000	2.824948e-003
1.129999999999998e+001	8.470592e+000	2.829408e-003
1.139999999999998e+001	8.566133e+000	2.833868e-003
1.149999999999998e+001	8.661673e+000	2.838328e-003
1.159999999999998e+001	8.757213e+000	2.842787e-003
1.169999999999997e+001	8.852754e+000	2.847247e-003
1.179999999999997e+001	8.948294e+000	2.851706e-003
1.189999999999997e+001	9.043835e+000	2.856166e-003
1.200000000000000e+001	9.139375e+000	2.860625e-003
Step Information: Vbb=1  (Run: 2/4)
0.000000000000000e+000	-1.725724e-003	1.725724e-006
1.000000000000000e-001	1.142949e-002	8.857051e-005
2.000000000000000e-001	2.105795e-002	1.789420e-004
3.000000000000000e-001	2.865527e-002	2.713447e-004
4.000000000000000e-001	3.498290e-002	3.650171e-004
5.000000000000000e-001	4.037444e-002	4.596256e-004
6.000000000000000e-001	4.512155e-002	5.548784e-004
7.000000000000000e-001	4.938349e-002	6.506165e-004
7.999999999999999e-001	5.326565e-002	7.467344e-004
8.999999999999999e-001	5.684477e-002	8.431553e-004
9.999999999999999e-001	6.017784e-002	9.398222e-004
1.100000000000000e+000	6.330822e-002	1.036692e-003
1.200000000000000e+000	6.626968e-002	1.133730e-003
1.300000000000000e+000	6.908912e-002	1.230911e-003
1.400000000000000e+000	7.178833e-002	1.328212e-003
1.500000000000000e+000	7.438529e-002	1.425615e-003
1.600000000000000e+000	7.689501e-002	1.523105e-003
1.700000000000000e+000	7.933030e-002	1.620670e-003
1.800000000000001e+000	8.170216e-002	1.718298e-003
1.900000000000001e+000	8.402022e-002	1.815980e-003
2.000000000000000e+000	8.629300e-002	1.913707e-003
2.100000000000001e+000	8.852817e-002	2.011472e-003
2.200000000000001e+000	9.073268e-002	2.109267e-003
2.300000000000001e+000	9.291296e-002	2.207087e-003
2.400000000000001e+000	9.507506e-002	2.304925e-003
2.500000000000001e+000	9.722468e-002	2.402775e-003
2.600000000000001e+000	9.936738e-002	2.500633e-003
2.700000000000001e+000	1.015086e-001	2.598491e-003
2.800000000000001e+000	1.036537e-001	2.696346e-003
2.900000000000001e+000	1.058081e-001	2.794192e-003
3.000000000000001e+000	1.079776e-001	2.892022e-003
3.100000000000001e+000	1.101679e-001	2.989832e-003
3.200000000000002e+000	1.123852e-001	3.087615e-003
3.300000000000002e+000	1.146363e-001	3.185364e-003
3.400000000000002e+000	1.169285e-001	3.283072e-003
3.500000000000002e+000	1.192698e-001	3.380730e-003
3.600000000000002e+000	1.216693e-001	3.478331e-003
3.700000000000002e+000	1.241372e-001	3.575863e-003
3.800000000000002e+000	1.266855e-001	3.673315e-003
3.900000000000002e+000	1.293281e-001	3.770672e-003
4.000000000000002e+000	1.320815e-001	3.867919e-003
4.100000000000001e+000	1.349655e-001	3.965035e-003
4.200000000000001e+000	1.380047e-001	4.061995e-003
4.300000000000001e+000	1.412295e-001	4.158771e-003
4.400000000000000e+000	1.446787e-001	4.255321e-003
4.500000000000000e+000	1.484030e-001	4.351597e-003
4.600000000000000e+000	1.524704e-001	4.447530e-003
4.699999999999999e+000	1.569749e-001	4.543025e-003
4.799999999999999e+000	1.620520e-001	4.637948e-003
4.899999999999999e+000	1.679065e-001	4.732093e-003
4.999999999999998e+000	1.748684e-001	4.825132e-003
5.099999999999998e+000	1.835153e-001	4.916485e-003
5.199999999999998e+000	1.949789e-001	5.005021e-003
5.299999999999997e+000	2.123246e-001	5.087676e-003
5.399999999999997e+000	2.435111e-001	5.156489e-003
5.499999999999996e+000	3.080056e-001	5.191994e-003
5.599999999999996e+000	3.960854e-001	5.203915e-003
5.699999999999996e+000	4.870272e-001	5.212973e-003
5.799999999999995e+000	5.779982e-001	5.222002e-003
5.899999999999995e+000	6.689742e-001	5.231026e-003
5.999999999999995e+000	7.599506e-001	5.240050e-003
6.099999999999994e+000	8.509270e-001	5.249073e-003
6.199999999999994e+000	9.419036e-001	5.258096e-003
6.299999999999994e+000	1.032880e+000	5.267120e-003
6.399999999999993e+000	1.123857e+000	5.276143e-003
6.499999999999993e+000	1.214834e+000	5.285166e-003
6.599999999999993e+000	1.305811e+000	5.294189e-003
6.699999999999992e+000	1.396788e+000	5.303212e-003
6.799999999999992e+000	1.487765e+000	5.312235e-003
6.899999999999992e+000	1.578742e+000	5.321258e-003
6.999999999999991e+000	1.669720e+000	5.330280e-003
7.099999999999991e+000	1.760697e+000	5.339303e-003
7.199999999999990e+000	1.851675e+000	5.348325e-003
7.299999999999990e+000	1.942653e+000	5.357347e-003
7.399999999999990e+000	2.033630e+000	5.366370e-003
7.499999999999989e+000	2.124608e+000	5.375392e-003
7.599999999999989e+000	2.215586e+000	5.384414e-003
7.699999999999989e+000	2.306564e+000	5.393436e-003
7.799999999999988e+000	2.397542e+000	5.402457e-003
7.899999999999988e+000	2.488521e+000	5.411479e-003
7.999999999999988e+000	2.579499e+000	5.420501e-003
8.099999999999987e+000	2.670478e+000	5.429522e-003
8.199999999999987e+000	2.761456e+000	5.438543e-003
8.299999999999987e+000	2.852435e+000	5.447565e-003
8.399999999999986e+000	2.943414e+000	5.456586e-003
8.499999999999986e+000	3.034393e+000	5.465607e-003
8.599999999999985e+000	3.125372e+000	5.474628e-003
8.699999999999985e+000	3.216351e+000	5.483649e-003
8.799999999999985e+000	3.307330e+000	5.492670e-003
8.899999999999984e+000	3.398310e+000	5.501690e-003
8.999999999999984e+000	3.489289e+000	5.510711e-003
9.099999999999984e+000	3.580269e+000	5.519731e-003
9.199999999999983e+000	3.671248e+000	5.528752e-003
9.299999999999983e+000	3.762228e+000	5.537772e-003
9.399999999999983e+000	3.853208e+000	5.546792e-003
9.499999999999982e+000	3.944188e+000	5.555812e-003
9.599999999999982e+000	4.035168e+000	5.564832e-003
9.699999999999982e+000	4.126148e+000	5.573852e-003
9.799999999999981e+000	4.217128e+000	5.582871e-003
9.899999999999981e+000	4.308109e+000	5.591891e-003
9.999999999999981e+000	4.399089e+000	5.600911e-003
1.009999999999998e+001	4.490070e+000	5.609930e-003
1.019999999999998e+001	4.581050e+000	5.618949e-003
1.029999999999998e+001	4.672031e+000	5.627969e-003
1.039999999999998e+001	4.763012e+000	5.636988e-003
1.049999999999998e+001	4.853993e+000	5.646007e-003
1.059999999999998e+001	4.944974e+000	5.655026e-003
1.069999999999998e+001	5.035955e+000	5.664045e-003
1.079999999999998e+001	5.126937e+000	5.673063e-003
1.089999999999998e+001	5.217918e+000	5.682081e-003
1.099999999999998e+001	5.308900e+000	5.691100e-003
1.109999999999998e+001	5.399881e+000	5.700118e-003
1.119999999999998e+001	5.490863e+000	5.709137e-003
1.129999999999998e+001	5.581845e+000	5.718155e-003
1.139999999999998e+001	5.672827e+000	5.727173e-003
1.149999999999998e+001	5.763809e+000	5.736191e-003
1.159999999999998e+001	5.854791e+000	5.745209e-003
1.169999999999997e+001	5.945773e+000	5.754227e-003
1.179999999999997e+001	6.036756e+000	5.763244e-003
1.189999999999997e+001	6.127738e+000	5.772262e-003
1.200000000000000e+001	6.218721e+000	5.781279e-003
Step Information: Vbb=1.2  (Run: 3/4)
0.000000000000000e+000	-1.921214e-003	1.921214e-006
1.000000000000000e-001	7.970240e-003	9.202976e-005
2.000000000000000e-001	1.562509e-002	1.843749e-004
3.000000000000000e-001	2.187520e-002	2.781248e-004
4.000000000000000e-001	2.718545e-002	3.728145e-004
5.000000000000000e-001	3.178440e-002	4.682156e-004
6.000000000000000e-001	3.586767e-002	5.641324e-004
7.000000000000000e-001	3.955060e-002	6.604494e-004
7.999999999999999e-001	4.291311e-002	7.570869e-004
8.999999999999999e-001	4.601433e-002	8.539857e-004
9.999999999999999e-001	4.889892e-002	9.511011e-004
1.100000000000000e+000	5.160135e-002	1.048399e-003
1.200000000000000e+000	5.414880e-002	1.145851e-003
1.300000000000000e+000	5.656305e-002	1.243437e-003
1.400000000000000e+000	5.886183e-002	1.341138e-003
1.500000000000000e+000	6.105977e-002	1.438940e-003
1.600000000000000e+000	6.316911e-002	1.536831e-003
1.700000000000000e+000	6.520014e-002	1.634800e-003
1.800000000000001e+000	6.716169e-002	1.732838e-003
1.900000000000001e+000	6.906132e-002	1.830939e-003
2.000000000000000e+000	7.090560e-002	1.929094e-003
2.100000000000001e+000	7.270029e-002	2.027300e-003
2.200000000000001e+000	7.445044e-002	2.125550e-003
2.300000000000001e+000	7.616055e-002	2.223840e-003
2.400000000000001e+000	7.783463e-002	2.322165e-003
2.500000000000001e+000	7.947629e-002	2.420524e-003
2.600000000000001e+000	8.108880e-002	2.518911e-003
2.700000000000001e+000	8.267511e-002	2.617325e-003
2.800000000000001e+000	8.423797e-002	2.715762e-003
2.900000000000001e+000	8.577987e-002	2.814220e-003
3.000000000000001e+000	8.730312e-002	2.912697e-003
3.100000000000001e+000	8.880991e-002	3.011190e-003
3.200000000000002e+000	9.030225e-002	3.109698e-003
3.300000000000002e+000	9.178207e-002	3.208218e-003
3.400000000000002e+000	9.325119e-002	3.306749e-003
3.500000000000002e+000	9.471136e-002	3.405289e-003
3.600000000000002e+000	9.616424e-002	3.503836e-003
3.700000000000002e+000	9.761146e-002	3.602389e-003
3.800000000000002e+000	9.905461e-002	3.700945e-003
3.900000000000002e+000	1.004952e-001	3.799505e-003
4.000000000000002e+000	1.019349e-001	3.898065e-003
4.100000000000001e+000	1.033751e-001	3.996625e-003
4.200000000000001e+000	1.048173e-001	4.095183e-003
4.300000000000001e+000	1.062632e-001	4.193737e-003
4.400000000000000e+000	1.077143e-001	4.292286e-003
4.500000000000000e+000	1.091722e-001	4.390828e-003
4.600000000000000e+000	1.106385e-001	4.489361e-003
4.699999999999999e+000	1.121150e-001	4.587885e-003
4.799999999999999e+000	1.136034e-001	4.686397e-003
4.899999999999999e+000	1.151057e-001	4.784894e-003
4.999999999999998e+000	1.166238e-001	4.883376e-003
5.099999999999998e+000	1.181599e-001	4.981840e-003
5.199999999999998e+000	1.197161e-001	5.080284e-003
5.299999999999997e+000	1.212949e-001	5.178705e-003
5.399999999999997e+000	1.228990e-001	5.277101e-003
5.499999999999996e+000	1.245313e-001	5.375469e-003
5.599999999999996e+000	1.261947e-001	5.473805e-003
5.699999999999996e+000	1.278929e-001	5.572107e-003
5.799999999999995e+000	1.296297e-001	5.670371e-003
5.899999999999995e+000	1.314093e-001	5.768591e-003
5.999999999999995e+000	1.332366e-001	5.866763e-003
6.099999999999994e+000	1.351170e-001	5.964883e-003
6.199999999999994e+000	1.370568e-001	6.062943e-003
6.299999999999994e+000	1.390631e-001	6.160937e-003
6.399999999999993e+000	1.411442e-001	6.258856e-003
6.499999999999993e+000	1.433098e-001	6.356690e-003
6.599999999999993e+000	1.455712e-001	6.454429e-003
6.699999999999992e+000	1.479420e-001	6.552058e-003
6.799999999999992e+000	1.504387e-001	6.649561e-003
6.899999999999992e+000	1.530812e-001	6.746919e-003
6.999999999999991e+000	1.558944e-001	6.844106e-003
7.099999999999991e+000	1.589095e-001	6.941090e-003
7.199999999999990e+000	1.621669e-001	7.037833e-003
7.299999999999990e+000	1.657194e-001	7.134281e-003
7.399999999999990e+000	1.696385e-001	7.230361e-003
7.499999999999989e+000	1.740238e-001	7.325976e-003
7.599999999999989e+000	1.790203e-001	7.420980e-003
7.699999999999989e+000	1.848490e-001	7.515151e-003
7.799999999999988e+000	1.918703e-001	7.608130e-003
7.899999999999988e+000	2.007237e-001	7.699276e-003
7.999999999999988e+000	2.126852e-001	7.787315e-003
8.099999999999987e+000	2.313158e-001	7.868684e-003
8.199999999999987e+000	2.657169e-001	7.934283e-003
8.299999999999987e+000	3.328515e-001	7.967149e-003
8.399999999999986e+000	4.177327e-001	7.982267e-003
8.499999999999986e+000	5.044709e-001	7.995529e-003
8.599999999999985e+000	5.912623e-001	8.008738e-003
8.699999999999985e+000	6.780581e-001	8.021941e-003
8.799999999999985e+000	7.648543e-001	8.035146e-003
8.899999999999984e+000	8.516507e-001	8.048349e-003
8.999999999999984e+000	9.384472e-001	8.061552e-003
9.099999999999984e+000	1.025244e+000	8.074756e-003
9.199999999999983e+000	1.112041e+000	8.087959e-003
9.299999999999983e+000	1.198837e+000	8.101163e-003
9.399999999999983e+000	1.285634e+000	8.114366e-003
9.499999999999982e+000	1.372432e+000	8.127568e-003
9.599999999999982e+000	1.459229e+000	8.140771e-003
9.699999999999982e+000	1.546026e+000	8.153974e-003
9.799999999999981e+000	1.632824e+000	8.167177e-003
9.899999999999981e+000	1.719622e+000	8.180378e-003
9.999999999999981e+000	1.806419e+000	8.193580e-003
1.009999999999998e+001	1.893217e+000	8.206783e-003
1.019999999999998e+001	1.980016e+000	8.219984e-003
1.029999999999998e+001	2.066814e+000	8.233186e-003
1.039999999999998e+001	2.153612e+000	8.246387e-003
1.049999999999998e+001	2.240411e+000	8.259589e-003
1.059999999999998e+001	2.327209e+000	8.272790e-003
1.069999999999998e+001	2.414008e+000	8.285992e-003
1.079999999999998e+001	2.500807e+000	8.299193e-003
1.089999999999998e+001	2.587606e+000	8.312394e-003
1.099999999999998e+001	2.674405e+000	8.325594e-003
1.109999999999998e+001	2.761205e+000	8.338795e-003
1.119999999999998e+001	2.848004e+000	8.351996e-003
1.129999999999998e+001	2.934804e+000	8.365196e-003
1.139999999999998e+001	3.021604e+000	8.378397e-003
1.149999999999998e+001	3.108403e+000	8.391596e-003
1.159999999999998e+001	3.195204e+000	8.404797e-003
1.169999999999997e+001	3.282004e+000	8.417997e-003
1.179999999999997e+001	3.368804e+000	8.431196e-003
1.189999999999997e+001	3.455604e+000	8.444396e-003
1.200000000000000e+001	3.542405e+000	8.457595e-003
Step Information: Vbb=1.4  (Run: 4/4)
0.000000000000000e+000	-2.054002e-003	2.054002e-006
1.000000000000000e-001	5.882055e-003	9.411795e-005
2.000000000000000e-001	1.227386e-002	1.877261e-004
3.000000000000000e-001	1.763164e-002	2.823684e-004
4.000000000000000e-001	2.226213e-002	3.777379e-004
5.000000000000000e-001	2.632958e-002	4.736704e-004
6.000000000000000e-001	2.997348e-002	5.700265e-004
7.000000000000000e-001	3.328108e-002	6.667189e-004
7.999999999999999e-001	3.631493e-002	7.636851e-004
8.999999999999999e-001	3.912214e-002	8.608779e-004
9.999999999999999e-001	4.173887e-002	9.582611e-004
1.100000000000000e+000	4.419347e-002	1.055807e-003
1.200000000000000e+000	4.650854e-002	1.153491e-003
1.300000000000000e+000	4.870243e-002	1.251298e-003
1.400000000000000e+000	5.079017e-002	1.349210e-003
1.500000000000000e+000	5.278428e-002	1.447216e-003
1.600000000000000e+000	5.469526e-002	1.545305e-003
1.700000000000000e+000	5.653204e-002	1.643468e-003
1.800000000000001e+000	5.830226e-002	1.741698e-003
1.900000000000001e+000	6.001249e-002	1.839987e-003
2.000000000000000e+000	6.166846e-002	1.938332e-003
2.100000000000001e+000	6.327518e-002	2.036725e-003
2.200000000000001e+000	6.483706e-002	2.135163e-003
2.300000000000001e+000	6.635799e-002	2.233642e-003
2.400000000000001e+000	6.784146e-002	2.332159e-003
